time	V(n003)	V(n004)
0.000000000000000e+000	5.151944e-003	0.000000e+000
4.383935897400576e-007	5.131068e-003	2.754563e-003
8.767871794801151e-007	5.021801e-003	5.509006e-003
1.315180769220173e-006	4.824142e-003	8.263328e-003
1.753574358960230e-006	4.538091e-003	1.101753e-002
2.191967948700288e-006	4.163649e-003	1.377161e-002
2.630361538440345e-006	3.700814e-003	1.652557e-002
3.068755128180402e-006	3.149588e-003	1.927941e-002
6.006265347145694e-006	-2.749554e-003	3.772241e-002
1.166085873863545e-005	-2.285107e-002	7.316775e-002
1.950694132817894e-005	-6.723518e-002	1.221636e-001
2.927256632817894e-005	-1.460441e-001	1.827176e-001
3.903819132817894e-005	-2.483008e-001	2.426035e-001
4.880381632817894e-005	-3.718540e-001	3.015763e-001
5.856944132817895e-005	-5.132720e-001	3.594140e-001
6.833506632817894e-005	-6.693268e-001	4.158990e-001
7.810069132817894e-005	-8.369839e-001	4.708186e-001
8.786631632817893e-005	-1.013395e+000	5.239662e-001
9.763194132817893e-005	-1.195889e+000	5.751416e-001
1.073975663281789e-004	-1.381966e+000	6.241524e-001
1.171631913281789e-004	-1.569291e+000	6.708140e-001
1.269288163281789e-004	-1.755687e+000	7.149508e-001
1.366944413281789e-004	-1.939133e+000	7.563967e-001
1.464600663281789e-004	-2.117753e+000	7.949957e-001
1.562256913281789e-004	-2.289818e+000	8.306025e-001
1.659913163281790e-004	-2.453737e+000	8.630831e-001
1.757569413281790e-004	-2.608057e+000	8.923152e-001
1.855225663281790e-004	-2.751456e+000	9.181889e-001
1.952881913281790e-004	-2.882742e+000	9.406067e-001
2.050538163281790e-004	-3.000849e+000	9.594843e-001
2.148194413281790e-004	-3.104832e+000	9.747506e-001
2.245850663281790e-004	-3.193869e+000	9.863482e-001
2.343506913281790e-004	-3.267251e+000	9.942334e-001
2.441163163281790e-004	-3.324386e+000	9.983765e-001
2.538819413281790e-004	-3.364790e+000	9.987619e-001
2.636475663281790e-004	-3.388090e+000	9.953883e-001
2.734131913281790e-004	-3.394014e+000	9.882681e-001
2.831788163281790e-004	-3.382397e+000	9.774284e-001
2.929444413281790e-004	-3.353169e+000	9.629099e-001
3.027100663281790e-004	-3.306358e+000	9.447672e-001
3.124756913281791e-004	-3.242085e+000	9.230686e-001
3.222413163281791e-004	-3.160558e+000	8.978958e-001
3.320069413281791e-004	-3.062073e+000	8.693435e-001
3.417725663281791e-004	-2.947010e+000	8.375192e-001
3.515381913281791e-004	-2.815825e+000	8.025427e-001
3.613038163281791e-004	-2.669050e+000	7.645456e-001
3.710694413281791e-004	-2.507290e+000	7.236708e-001
3.808350663281791e-004	-2.331217e+000	6.800724e-001
3.906006913281791e-004	-2.141566e+000	6.339143e-001
4.003663163281791e-004	-1.939131e+000	5.853703e-001
4.101319413281791e-004	-1.724764e+000	5.346231e-001
4.198975663281791e-004	-1.499364e+000	4.818637e-001
4.296631913281792e-004	-1.263879e+000	4.272907e-001
4.394288163281792e-004	-1.019298e+000	3.711095e-001
4.491944413281792e-004	-7.666487e-001	3.135315e-001
4.589600663281792e-004	-5.069906e-001	2.547734e-001
4.687256913281792e-004	-2.414119e-001	1.950564e-001
4.784913163281792e-004	2.897585e-002	1.346053e-001
4.882569413281792e-004	3.030423e-001	7.364752e-002
5.077881913281792e-004	8.576236e-001	-4.886910e-002
5.273194413281792e-004	1.413092e+000	-1.706507e-001
5.468506913281793e-004	1.960206e+000	-2.898655e-001
5.663819413281793e-004	2.489875e+000	-4.047205e-001
5.859131913281793e-004	2.993297e+000	-5.134881e-001
6.054444413281793e-004	3.462098e+000	-6.145324e-001
6.249756913281793e-004	3.888463e+000	-7.063335e-001
6.347413163281793e-004	4.083473e+000	-7.483304e-001
6.542725663281794e-004	4.433042e+000	-8.237271e-001
6.738038163281794e-004	4.723833e+000	-8.867341e-001
6.933350663281794e-004	4.950847e+000	-9.364039e-001
7.128663163281794e-004	5.110085e+000	-9.719892e-001
7.323975663281794e-004	5.198606e+000	-9.929549e-001
7.421631913281794e-004	5.215730e+000	-9.978482e-001
7.616944413281795e-004	5.195078e+000	-9.963633e-001
7.812256913281795e-004	5.101229e+000	-9.798921e-001
8.007569413281795e-004	4.935173e+000	-9.486825e-001
8.202881913281795e-004	4.699020e+000	-9.032039e-001
8.398194413281795e-004	4.395965e+000	-8.441402e-001
8.593506913281795e-004	4.030235e+000	-7.723799e-001
8.788819413281796e-004	3.607028e+000	-6.890022e-001
8.984131913281796e-004	3.132433e+000	-5.952613e-001
9.179444413281796e-004	2.613333e+000	-4.925672e-001
9.374756913281796e-004	2.057301e+000	-3.824643e-001
9.570069413281796e-004	1.472489e+000	-2.666089e-001
9.765381913281796e-004	8.674961e-001	-1.467433e-001
9.960694413281796e-004	2.512453e-001	-2.467068e-002
1.005835066328180e-003	-5.825955e-002	3.662010e-002
1.025366316328180e-003	-6.743023e-001	1.585580e-001
1.044897566328180e-003	-1.278792e+000	2.781111e-001
1.064428816328180e-003	-1.862764e+000	3.934811e-001
1.083960066328180e-003	-2.417552e+000	5.029327e-001
1.103491316328180e-003	-2.934915e+000	6.048198e-001
1.123022566328180e-003	-3.407169e+000	6.976099e-001
1.142553816328180e-003	-3.827298e+000	7.799072e-001
1.162085066328180e-003	-4.189059e+000	8.504741e-001
1.181616316328180e-003	-4.487084e+000	9.082489e-001
1.201147566328180e-003	-4.716955e+000	9.523629e-001
1.220678816328180e-003	-4.875271e+000	9.821525e-001
1.240210066328180e-003	-4.959704e+000	9.971696e-001
1.259741316328180e-003	-4.969034e+000	9.971883e-001
1.279272566328180e-003	-4.903161e+000	9.822084e-001
1.298803816328180e-003	-4.763116e+000	9.524551e-001
1.318335066328180e-003	-4.551041e+000	9.083760e-001
1.337866316328180e-003	-4.270157e+000	8.506342e-001
1.357397566328180e-003	-3.924718e+000	7.800980e-001
1.376928816328180e-003	-3.519944e+000	6.978283e-001
1.396460066328180e-003	-3.061948e+000	6.050627e-001
1.415991316328180e-003	-2.557638e+000	5.031964e-001
1.435522566328180e-003	-2.014619e+000	3.937615e-001
1.455053816328180e-003	-1.441075e+000	2.784042e-001
1.474585066328180e-003	-8.456472e-001	1.588593e-001
1.494116316328180e-003	-2.373050e-001	3.692508e-002
1.513647566328180e-003	3.747895e-001	-8.556455e-002
1.533178816328180e-003	9.814189e-001	-2.067672e-001
1.552710066328180e-003	1.573449e+000	-3.248599e-001
1.572241316328180e-003	2.141967e+000	-4.380664e-001
1.591772566328180e-003	2.678413e+000	-5.446839e-001
1.611303816328180e-003	3.174711e+000	-6.431090e-001
1.630835066328180e-003	3.623391e+000	-7.318611e-001
1.650366316328180e-003	4.017697e+000	-8.096052e-001
1.669897566328180e-003	4.351694e+000	-8.751721e-001
1.689428816328180e-003	4.620353e+000	-9.275757e-001
1.708960066328180e-003	4.819630e+000	-9.660277e-001
1.728491316328180e-003	4.946522e+000	-9.899497e-001
1.748022566328180e-003	4.999119e+000	-9.989820e-001
1.767553816328180e-003	4.976626e+000	-9.929886e-001
1.787085066328180e-003	4.879380e+000	-9.720597e-001
1.806616316328180e-003	4.708840e+000	-9.365102e-001
1.826147566328180e-003	4.467570e+000	-8.868747e-001
1.845678816328180e-003	4.159197e+000	-8.238997e-001
1.865210066328180e-003	3.788358e+000	-7.485325e-001
1.884741316328180e-003	3.360629e+000	-6.619068e-001
1.904272566328180e-003	2.882442e+000	-5.653253e-001
1.923803816328180e-003	2.360988e+000	-4.602408e-001
1.943335066328180e-003	1.804109e+000	-3.482339e-001
1.962866316328180e-003	1.220180e+000	-2.309892e-001
1.982397566328180e-003	6.179826e-001	-1.102702e-001
2.001928816328180e-003	6.574016e-003	1.210741e-002
2.021460066328179e-003	-6.048508e-001	1.343029e-001
2.040991316328179e-003	-1.207096e+000	2.544783e-001
2.060522566328178e-003	-1.791104e+000	3.708261e-001
2.080053816328178e-003	-2.348091e+000	4.815964e-001
2.099585066328178e-003	-2.869680e+000	5.851229e-001
2.119116316328177e-003	-3.348026e+000	6.798488e-001
2.138647566328177e-003	-3.775934e+000	7.643490e-001
2.158178816328176e-003	-4.146969e+000	8.373528e-001
2.177710066328176e-003	-4.455549e+000	8.977619e-001
2.197241316328175e-003	-4.697034e+000	9.446679e-001
2.216772566328175e-003	-4.867792e+000	9.773653e-001
2.236303816328175e-003	-4.965254e+000	9.953620e-001
2.255835066328174e-003	-4.987955e+000	9.983877e-001
2.275366316328174e-003	-4.935553e+000	9.863967e-001
2.294897566328173e-003	-4.808837e+000	9.595693e-001
2.314428816328173e-003	-4.609714e+000	9.183091e-001
2.333960066328173e-003	-4.341177e+000	8.632367e-001
2.353491316328172e-003	-4.007268e+000	7.951804e-001
2.373022566328172e-003	-3.613008e+000	7.151639e-001
2.392553816328171e-003	-3.164327e+000	6.243907e-001
2.412085066328171e-003	-2.667974e+000	5.242260e-001
2.431616316328170e-003	-2.131415e+000	4.161764e-001
2.451147566328170e-003	-1.562719e+000	3.018672e-001
2.470678816328170e-003	-9.704413e-001	1.830177e-001
2.490210066328169e-003	-3.634892e-001	6.141534e-002
2.509741316328169e-003	2.490083e-001	-6.111073e-002
2.529272566328168e-003	8.578386e-001	-1.827176e-001
2.548803816328168e-003	1.453844e+000	-3.015763e-001
2.568335066328168e-003	2.028061e+000	-4.158990e-001
2.587866316328167e-003	2.571852e+000	-5.239662e-001
2.607397566328167e-003	3.077038e+000	-6.241524e-001
2.626928816328166e-003	3.536020e+000	-7.149508e-001
2.646460066328166e-003	3.941895e+000	-7.949957e-001
2.665991316328165e-003	4.288557e+000	-8.630831e-001
2.685522566328165e-003	4.570792e+000	-9.181889e-001
2.705053816328165e-003	4.784356e+000	-9.594843e-001
2.724585066328164e-003	4.926036e+000	-9.863482e-001
2.744116316328164e-003	4.993701e+000	-9.983765e-001
2.753881941328164e-003	4.999415e+000	-9.987619e-001
2.773413191328163e-003	4.954502e+000	-9.882681e-001
2.792944441328163e-003	4.835145e+000	-9.629099e-001
2.812475691328162e-003	4.643142e+000	-9.230686e-001
2.832006941328162e-003	4.381378e+000	-8.693435e-001
2.851538191328162e-003	4.053793e+000	-8.025427e-001
2.871069441328161e-003	3.665312e+000	-7.236708e-001
2.890600691328161e-003	3.221780e+000	-6.339143e-001
2.910131941328160e-003	2.729867e+000	-5.346231e-001
2.929663191328160e-003	2.196973e+000	-4.272907e-001
2.949194441328159e-003	1.631112e+000	-3.135315e-001
2.968725691328159e-003	1.040794e+000	-1.950564e-001
2.988256941328159e-003	4.348999e-001	-7.364752e-002
3.007788191328158e-003	-1.774585e-001	4.886910e-002
3.027319441328158e-003	-7.870707e-001	1.706507e-001
3.046850691328157e-003	-1.384767e+000	2.898655e-001
3.066381941328157e-003	-1.961559e+000	4.047205e-001
3.085913191328157e-003	-2.508770e+000	5.134881e-001
3.105444441328156e-003	-3.018169e+000	6.145324e-001
3.124975691328156e-003	-3.482095e+000	7.063335e-001
3.144506941328155e-003	-3.893570e+000	7.875108e-001
3.164038191328155e-003	-4.246404e+000	8.568431e-001
3.183569441328154e-003	-4.535290e+000	9.132877e-001
3.203100691328154e-003	-4.755883e+000	9.559956e-001
3.222631941328154e-003	-4.904866e+000	9.843245e-001
3.242163191328153e-003	-4.979997e+000	9.978482e-001
3.261694441328153e-003	-4.980146e+000	9.963633e-001
3.281225691328152e-003	-4.905311e+000	9.798921e-001
3.300756941328152e-003	-4.756619e+000	9.486825e-001
3.320288191328152e-003	-4.536305e+000	9.032039e-001
3.339819441328151e-003	-4.247683e+000	8.441402e-001
3.359350691328151e-003	-3.895096e+000	7.723799e-001
3.378881941328150e-003	-3.483845e+000	6.890022e-001
3.398413191328150e-003	-3.020117e+000	5.952613e-001
3.417944441328149e-003	-2.510887e+000	4.925672e-001
3.437475691328149e-003	-1.963813e+000	3.824643e-001
3.457006941328149e-003	-1.387125e+000	2.666089e-001
3.476538191328148e-003	-7.894949e-001	1.467433e-001
3.496069441328148e-003	-1.799129e-001	2.467068e-002
3.515600691328147e-003	4.324530e-001	-9.777306e-002
3.535131941328147e-003	1.038392e+000	-2.187462e-001
3.554663191328147e-003	1.628791e+000	-3.364292e-001
3.574194441328146e-003	2.194769e+000	-4.490520e-001
3.593725691328146e-003	2.727814e+000	-5.549206e-001
3.613256941328145e-003	3.219908e+000	-6.524427e-001
3.632788191328145e-003	3.663649e+000	-7.401515e-001
3.652319441328144e-003	4.052362e+000	-8.167276e-001
3.671850691328144e-003	4.380202e+000	-8.810195e-001
3.691381941328144e-003	4.642236e+000	-9.320599e-001
3.710913191328143e-003	4.834524e+000	-9.690814e-001
3.730444441328143e-003	4.954173e+000	-9.915270e-001
3.749975691328142e-003	4.999384e+000	-9.990591e-001
3.769506941328142e-003	4.969476e+000	-9.915643e-001
3.789038191328142e-003	4.864901e+000	-9.691556e-001
3.808569441328141e-003	4.687230e+000	-9.321698e-001
3.828100691328141e-003	4.439137e+000	-8.811634e-001
3.847631941328140e-003	4.124352e+000	-8.169034e-001
3.867163191328140e-003	3.747611e+000	-7.403564e-001
3.886694441328139e-003	3.314581e+000	-6.526738e-001
3.906225691328139e-003	2.831774e+000	-5.551744e-001
3.925756941328139e-003	2.306453e+000	-4.493245e-001
3.945288191328138e-003	1.746518e+000	-3.367165e-001
3.964819441328138e-003	1.160392e+000	-2.190440e-001
3.984350691328137e-003	5.568893e-001	-9.807677e-002
4.003881941328137e-003	-5.491191e-002	2.436559e-002
4.023413191328137e-003	-6.658101e-001	1.464415e-001
4.042944441328136e-003	-1.266617e+000	2.663147e-001
4.062475691328136e-003	-1.848295e+000	3.821824e-001
4.082006941328135e-003	-2.402097e+000	4.923016e-001
4.101538191328135e-003	-2.919691e+000	5.950162e-001
4.121069441328134e-003	-3.393294e+000	6.887812e-001
4.140600691328134e-003	-3.815780e+000	7.721863e-001
4.160131941328134e-003	-4.180797e+000	8.439770e-001
4.179663191328133e-003	-4.482852e+000	9.030734e-001
4.199194441328133e-003	-4.717402e+000	9.485868e-001
4.218725691328132e-003	-4.880922e+000	9.798326e-001
4.238256941328132e-003	-4.970949e+000	9.963408e-001
4.257788191328132e-003	-4.986131e+000	9.978631e-001
4.277319441328131e-003	-4.926239e+000	9.843767e-001
4.296850691328131e-003	-4.792174e+000	9.560842e-001
4.316381941328130e-003	-4.585953e+000	9.134114e-001
4.335913191328130e-003	-4.310678e+000	8.570000e-001
4.355444441328129e-003	-3.970489e+000	7.876985e-001
4.374975691328129e-003	-3.570503e+000	7.065493e-001
4.394506941328129e-003	-3.116737e+000	6.147730e-001
4.414038191328128e-003	-2.616014e+000	5.137499e-001
4.433569441328128e-003	-2.075867e+000	4.049995e-001
4.453100691328127e-003	-1.504421e+000	2.901576e-001
4.472631941328127e-003	-9.102681e-001	1.709514e-001
4.492163191328127e-003	-3.023469e-001	4.917391e-002
4.511694441328126e-003	3.101997e-001	-7.334317e-002
4.531225691328126e-003	9.181585e-001	-1.947571e-001
4.550756941328125e-003	1.512385e+000	-3.132417e-001
4.570288191328125e-003	2.083942e+000	-4.270148e-001
4.589819441328124e-003	2.624233e+000	-5.343653e-001
4.609350691328124e-003	3.125130e+000	-6.336784e-001
4.628881941328124e-003	3.579100e+000	-7.234604e-001
4.648413191328123e-003	3.979315e+000	-8.023609e-001
4.667944441328123e-003	4.319754e+000	-8.691931e-001
4.687475691328122e-003	4.595298e+000	-9.229518e-001
4.707006941328122e-003	4.801800e+000	-9.628285e-001
4.726538191328122e-003	4.936156e+000	-9.882234e-001
4.746069441328121e-003	4.996346e+000	-9.987544e-001
4.765600691328121e-003	4.981462e+000	-9.942633e-001
4.785131941328120e-003	4.891730e+000	-9.748175e-001
4.804663191328120e-003	4.728498e+000	-9.407095e-001
4.824194441328119e-003	4.494225e+000	-8.924524e-001
4.843725691328119e-003	4.192430e+000	-8.307720e-001
4.863256941328119e-003	3.827657e+000	-7.565960e-001
4.882788191328118e-003	3.405389e+000	-6.710401e-001
4.902319441328118e-003	2.931979e+000	-5.753911e-001
4.921850691328117e-003	2.414547e+000	-4.710878e-001
4.941381941328117e-003	1.860876e+000	-3.596988e-001
4.960913191328117e-003	1.279294e+000	-2.428996e-001
4.980444441328116e-003	6.785468e-001	-1.224469e-001
4.999975691328116e-003	6.767124e-002	-1.525920e-004
5.019506941328115e-003	-5.441450e-001	1.221441e-001
5.039038191328115e-003	-1.147700e+000	2.426035e-001
5.058569441328114e-003	-1.733915e+000	3.594140e-001
5.078100691328114e-003	-2.293974e+000	4.708186e-001
5.097631941328114e-003	-2.819452e+000	5.751416e-001
5.117163191328113e-003	-3.302445e+000	6.708140e-001
5.136694441328113e-003	-3.735689e+000	7.563967e-001
5.156225691328112e-003	-4.112668e+000	8.306025e-001
5.175756941328112e-003	-4.427710e+000	8.923152e-001
5.195288191328112e-003	-4.676077e+000	9.406067e-001
5.214819441328111e-003	-4.854034e+000	9.747506e-001
5.234350691328111e-003	-4.958904e+000	9.942334e-001
5.253881941328110e-003	-4.989110e+000	9.987619e-001
5.273413191328110e-003	-4.944196e+000	9.882681e-001
5.292944441328109e-003	-4.824840e+000	9.629099e-001
5.312475691328109e-003	-4.632836e+000	9.230686e-001
5.332006941328109e-003	-4.371073e+000	8.693435e-001
5.351538191328108e-003	-4.043488e+000	8.025427e-001
5.371069441328108e-003	-3.655008e+000	7.236708e-001
5.390600691328107e-003	-3.211475e+000	6.339143e-001
5.410131941328107e-003	-2.719563e+000	5.346231e-001
5.429663191328107e-003	-2.186668e+000	4.272907e-001
5.449194441328106e-003	-1.620807e+000	3.135315e-001
5.468725691328106e-003	-1.030490e+000	1.950564e-001
5.488256941328105e-003	-4.245956e-001	7.364752e-002
5.507788191328105e-003	1.877628e-001	-4.886910e-002
5.527319441328104e-003	7.973748e-001	-1.706507e-001
5.546850691328104e-003	1.395072e+000	-2.898655e-001
5.566381941328104e-003	1.971863e+000	-4.047205e-001
5.585913191328103e-003	2.519074e+000	-5.134881e-001
5.605444441328103e-003	3.028473e+000	-6.145324e-001
5.624975691328102e-003	3.492399e+000	-7.063335e-001
5.644506941328102e-003	3.903874e+000	-7.875108e-001
5.664038191328102e-003	4.256708e+000	-8.568431e-001
5.683569441328101e-003	4.545594e+000	-9.132877e-001
5.703100691328101e-003	4.766187e+000	-9.559956e-001
5.722631941328100e-003	4.915170e+000	-9.843245e-001
5.742163191328100e-003	4.990301e+000	-9.978482e-001
5.761694441328099e-003	4.990450e+000	-9.963633e-001
5.781225691328099e-003	4.915615e+000	-9.798921e-001
5.800756941328099e-003	4.766923e+000	-9.486825e-001
5.820288191328098e-003	4.546609e+000	-9.032039e-001
5.839819441328098e-003	4.257987e+000	-8.441402e-001
5.859350691328097e-003	3.905400e+000	-7.723799e-001
5.878881941328097e-003	3.494149e+000	-6.890022e-001
5.898413191328097e-003	3.030421e+000	-5.952613e-001
5.917944441328096e-003	2.521190e+000	-4.925672e-001
5.937475691328096e-003	1.974117e+000	-3.824643e-001
5.957006941328095e-003	1.397428e+000	-2.666089e-001
5.976538191328095e-003	7.997987e-001	-1.467433e-001
5.996069441328094e-003	1.902167e-001	-2.467068e-002
6.015600691328094e-003	-4.221492e-001	9.777306e-002
6.035131941328094e-003	-1.028088e+000	2.187462e-001
6.054663191328093e-003	-1.618487e+000	3.364292e-001
6.074194441328093e-003	-2.184465e+000	4.490520e-001
6.093725691328092e-003	-2.717510e+000	5.549206e-001
6.113256941328092e-003	-3.209604e+000	6.524427e-001
6.132788191328092e-003	-3.653345e+000	7.401515e-001
6.152319441328091e-003	-4.042058e+000	8.167276e-001
6.171850691328091e-003	-4.369898e+000	8.810195e-001
6.191381941328090e-003	-4.631932e+000	9.320599e-001
6.210913191328090e-003	-4.824220e+000	9.690814e-001
6.230444441328089e-003	-4.943869e+000	9.915270e-001
6.249975691328089e-003	-4.989079e+000	9.990591e-001
6.269506941328089e-003	-4.959172e+000	9.915643e-001
6.289038191328088e-003	-4.854597e+000	9.691556e-001
6.308569441328088e-003	-4.676926e+000	9.321698e-001
6.328100691328087e-003	-4.428832e+000	8.811634e-001
6.347631941328087e-003	-4.114048e+000	8.169034e-001
6.367163191328087e-003	-3.737307e+000	7.403564e-001
6.386694441328086e-003	-3.304277e+000	6.526738e-001
6.406225691328086e-003	-2.821470e+000	5.551744e-001
6.425756941328085e-003	-2.296149e+000	4.493245e-001
6.445288191328085e-003	-1.736214e+000	3.367165e-001
6.464819441328084e-003	-1.150088e+000	2.190440e-001
6.484350691328084e-003	-5.465854e-001	9.807677e-002
6.503881941328084e-003	6.521577e-002	-2.436559e-002
6.523413191328083e-003	6.761140e-001	-1.464415e-001
6.542944441328083e-003	1.276921e+000	-2.663147e-001
6.562475691328082e-003	1.858599e+000	-3.821824e-001
6.582006941328082e-003	2.412401e+000	-4.923016e-001
6.601538191328082e-003	2.929995e+000	-5.950162e-001
6.621069441328081e-003	3.403598e+000	-6.887812e-001
6.640600691328081e-003	3.826084e+000	-7.721863e-001
6.660131941328080e-003	4.191100e+000	-8.439770e-001
